
**** 05/18/23 10:21:11 *********** Evaluation PSpice (Nov 1999) **************

 * E:\Prctica_3\Fuente_DC_y_dos_resistencias.sch


 ****     CIRCUIT DESCRIPTION


******************************************************************************




* Schematics Version 9.1 - Web Update 1
* Thu May 18 10:21:08 2023



** Analysis setup **
.tran 0.1ms 1ms
.OP 


* From [PSPICE NETLIST] section of pspiceev.ini:
.lib "nom.lib"

.INC "Fuente_DC_y_dos_resistencias.net"

**** INCLUDING Fuente_DC_y_dos_resistencias.net ****
* Schematics Netlist *



R_R1         $N_0002 $N_0001  2k  
R_R2         0 $N_0001  3k  
V_V         $N_0002 0 5V

**** RESUMING Fuente_DC_y_dos_resistencias.cir ****
.INC "Fuente_DC_y_dos_resistencias.als"



**** INCLUDING Fuente_DC_y_dos_resistencias.als ****
* Schematics Aliases *

.ALIASES
R_R1            R1(1=$N_0002 2=$N_0001 )
R_R2            R2(1=0 2=$N_0001 )
V_V             V(+=$N_0002 -=0 )
.ENDALIASES


**** RESUMING Fuente_DC_y_dos_resistencias.cir ****
.probe


.END

**** 05/18/23 10:21:11 *********** Evaluation PSpice (Nov 1999) **************

 * E:\Prctica_3\Fuente_DC_y_dos_resistencias.sch


 ****     SMALL SIGNAL BIAS SOLUTION       TEMPERATURE =   27.000 DEG C


******************************************************************************



 NODE   VOLTAGE     NODE   VOLTAGE     NODE   VOLTAGE     NODE   VOLTAGE


($N_0001)    3.0000                   ($N_0002)    5.0000                   




    VOLTAGE SOURCE CURRENTS
    NAME         CURRENT

    V_V         -1.000E-03

    TOTAL POWER DISSIPATION   5.00E-03  WATTS


**** 05/18/23 10:21:11 *********** Evaluation PSpice (Nov 1999) **************

 * E:\Prctica_3\Fuente_DC_y_dos_resistencias.sch


 ****     OPERATING POINT INFORMATION      TEMPERATURE =   27.000 DEG C


******************************************************************************




**** 05/18/23 10:21:11 *********** Evaluation PSpice (Nov 1999) **************

 * E:\Prctica_3\Fuente_DC_y_dos_resistencias.sch


 ****     INITIAL TRANSIENT SOLUTION       TEMPERATURE =   27.000 DEG C


******************************************************************************



 NODE   VOLTAGE     NODE   VOLTAGE     NODE   VOLTAGE     NODE   VOLTAGE


($N_0001)    3.0000                   ($N_0002)    5.0000                   




    VOLTAGE SOURCE CURRENTS
    NAME         CURRENT

    V_V         -1.000E-03

    TOTAL POWER DISSIPATION   5.00E-03  WATTS



          JOB CONCLUDED

          TOTAL JOB TIME             .06
