
**** 05/18/23 10:55:17 *********** Evaluation PSpice (Nov 1999) **************

 * E:\Prctica_3\Circuito_trifasico_estrella_delta.sch


 ****     CIRCUIT DESCRIPTION


******************************************************************************




* Schematics Version 9.1 - Web Update 1
* Thu May 18 10:53:45 2023



** Analysis setup **
.tran 0.1ms 68ms
.OP 


* From [PSPICE NETLIST] section of pspiceev.ini:
.lib "nom.lib"

.INC "Circuito_trifasico_estrella_delta.net"

**** INCLUDING Circuito_trifasico_estrella_delta.net ****
* Schematics Netlist *



R_R7         $N_0002 $N_0001  600  
R_R6         $N_0003 $N_0001  600  
R_R8         $N_0002 $N_0003  600  
V_V2         $N_0001 0  
+SIN 0 169.7 60H 0 0 0
V_V3         $N_0002 0  
+SIN 0 169.7 60H 0 0 120
V_V1         $N_0003 0  
+SIN 0 169.7 60H 0 0 -120

**** RESUMING Circuito_trifasico_estrella_delta.cir ****
.INC "Circuito_trifasico_estrella_delta.als"



**** INCLUDING Circuito_trifasico_estrella_delta.als ****
* Schematics Aliases *

.ALIASES
R_R7            R7(1=$N_0002 2=$N_0001 )
R_R6            R6(1=$N_0003 2=$N_0001 )
R_R8            R8(1=$N_0002 2=$N_0003 )
V_V2            V2(+=$N_0001 -=0 )
V_V3            V3(+=$N_0002 -=0 )
V_V1            V1(+=$N_0003 -=0 )
.ENDALIASES


**** RESUMING Circuito_trifasico_estrella_delta.cir ****
.probe


.END

**** 05/18/23 10:55:17 *********** Evaluation PSpice (Nov 1999) **************

 * E:\Prctica_3\Circuito_trifasico_estrella_delta.sch


 ****     SMALL SIGNAL BIAS SOLUTION       TEMPERATURE =   27.000 DEG C


******************************************************************************



 NODE   VOLTAGE     NODE   VOLTAGE     NODE   VOLTAGE     NODE   VOLTAGE


($N_0001)    0.0000                   ($N_0002)    0.0000                       

($N_0003)    0.0000                   




    VOLTAGE SOURCE CURRENTS
    NAME         CURRENT

    V_V2         0.000E+00
    V_V3         0.000E+00
    V_V1         0.000E+00

    TOTAL POWER DISSIPATION   0.00E+00  WATTS


**** 05/18/23 10:55:17 *********** Evaluation PSpice (Nov 1999) **************

 * E:\Prctica_3\Circuito_trifasico_estrella_delta.sch


 ****     OPERATING POINT INFORMATION      TEMPERATURE =   27.000 DEG C


******************************************************************************




**** 05/18/23 10:55:17 *********** Evaluation PSpice (Nov 1999) **************

 * E:\Prctica_3\Circuito_trifasico_estrella_delta.sch


 ****     INITIAL TRANSIENT SOLUTION       TEMPERATURE =   27.000 DEG C


******************************************************************************



 NODE   VOLTAGE     NODE   VOLTAGE     NODE   VOLTAGE     NODE   VOLTAGE


($N_0001)    0.0000                   ($N_0002)  146.9600                       

($N_0003) -146.9600                   




    VOLTAGE SOURCE CURRENTS
    NAME         CURRENT

    V_V2         0.000E+00
    V_V3        -7.348E-01
    V_V1         7.348E-01

    TOTAL POWER DISSIPATION   2.16E+02  WATTS



          JOB CONCLUDED

          TOTAL JOB TIME             .11
